


                                __________________________________________
                               |                                          |
                               | NUMERICAL ELECTROMAGNETICS CODE (nec2++) |
                               | Implemented in 'C++' in Double Precision |
                               |        Version 1.7.4 [2018-05-30]        |
                               |__________________________________________|



                                -------- STRUCTURE SPECIFICATION --------
                                COORDINATES MUST BE INPUT IN
                                METERS OR BE SCALED TO METERS
                                BEFORE STRUCTURE INPUT IS ENDED
  WIRE                                                                                 SEG FIRST  LAST  TAG
   No:        X1         Y1         Z1         X2         Y2         Z2       RADIUS   No:   SEG   SEG  No:

     1      0.2498     0.0000     0.0000    -0.2498     0.0000     0.0000     0.0050    11     1    11    1

     TOTAL SEGMENTS USED: 11   SEGMENTS IN A SYMMETRIC CELL: 11   SYMMETRY FLAG: 0


                               ---------- SEGMENTATION DATA ----------
                                        COORDINATES IN METERS
                            I+ AND I- INDICATE THE SEGMENTS BEFORE AND AFTER I

   SEG    COORDINATES OF SEGM CENTER     SEGM    ORIENTATION ANGLES    WIRE    CONNECTION DATA   TAG
   No:       X         Y         Z      LENGTH     ALPHA      BETA    RADIUS    I-     I    I+   NO:
     1    0.2271    0.0000    0.0000    0.0454    0.0000  180.0000    0.0050     0     1     2     1
     2    0.1817    0.0000    0.0000    0.0454    0.0000  180.0000    0.0050     1     2     3     1
     3    0.1363    0.0000    0.0000    0.0454    0.0000  180.0000    0.0050     2     3     4     1
     4    0.0908    0.0000    0.0000    0.0454    0.0000  180.0000    0.0050     3     4     5     1
     5    0.0454    0.0000    0.0000    0.0454    0.0000  180.0000    0.0050     4     5     6     1
     6    0.0000    0.0000    0.0000    0.0454    0.0000  180.0000    0.0050     5     6     7     1
     7   -0.0454    0.0000    0.0000    0.0454    0.0000  180.0000    0.0050     6     7     8     1
     8   -0.0908    0.0000    0.0000    0.0454    0.0000  180.0000    0.0050     7     8     9     1
     9   -0.1363    0.0000    0.0000    0.0454    0.0000  180.0000    0.0050     8     9    10     1
    10   -0.1817    0.0000    0.0000    0.0454    0.0000  180.0000    0.0050     9    10    11     1
    11   -0.2271    0.0000    0.0000    0.0454    0.0000  180.0000    0.0050    10    11     0     1



*****  DATA CARD N0.   1 FR   0     1     0     0  3.00000E+02  0.00000E+00  0.00000E+00  0.00000E+00  0.00000E+00  0.00000E+00
*****  DATA CARD N0.   2 EX   0     1     6     0  1.00000E+00  0.00000E+00  0.00000E+00  0.00000E+00  0.00000E+00  0.00000E+00
*****  DATA CARD N0.   3 RP   0    37    73  1000  0.00000E+00  0.00000E+00  5.00000E+00  5.00000E+00  0.00000E+00  0.00000E+00


                               --------- FREQUENCY --------
                               FREQUENCY=  3.0000E+02 MHZ
                               WAVELENGTH= 9.9932E-01 METERS


                        APPROXIMATE INTEGRATION EMPLOYED FOR SEGMENTS
                        THAT ARE MORE THAN 1.000 WAVELENGTHS APART



                          ------ STRUCTURE IMPEDANCE LOADING ------
                                 THIS STRUCTURE IS NOT LOADED



                            -------- ANTENNA ENVIRONMENT --------
                            FREE SPACE



                             ---------- MATRIX TIMING ----------
                               FILL= 0 msec  FACTOR: 0 msec


                      ----- ANTENNA INPUT PARAMETERS -----
  TAG   SEG       VOLTAGE (VOLTS)         CURRENT (AMPS)         IMPEDANCE (OHMS)        ADMITTANCE (MHOS)     POWER
  NO.   NO.     REAL      IMAGINARY     REAL      IMAGINARY     REAL      IMAGINARY    REAL       IMAGINARY   (WATTS)
   1     6  1.0000E+00  0.0000E+00  8.2638E-03 -4.4406E-03  9.3897E+01  5.0456E+01  8.2638E-03 -4.4406E-03  4.1319E-03







                        ----- CURRENTS AND LOCATION -----
                            DISTANCES IN WAVELENGTHS 

   SEG  TAG    COORDINATES OF SEGM CENTER     SEGM    ------------- CURRENT (AMPS) -------------
   No:  No:       X         Y         Z      LENGTH     REAL      IMAGINARY    MAGN        PHASE
     1    1    0.2273    0.0000    0.0000   0.04545  1.7554E-03 -1.5052E-03  2.3124E-03  -40.613 
     2    1    0.1818    0.0000    0.0000   0.04545  4.0152E-03 -3.2734E-03  5.1804E-03  -39.189 
     3    1    0.1364    0.0000    0.0000   0.04545  5.7933E-03 -4.4446E-03  7.3019E-03  -37.495 
     4    1    0.0909    0.0000    0.0000   0.04545  7.1379E-03 -5.0707E-03  8.7556E-03  -35.390 
     5    1    0.0455    0.0000    0.0000   0.04545  7.9779E-03 -5.0472E-03  9.4404E-03  -32.319 
     6    1    0.0000    0.0000    0.0000   0.04545  8.2638E-03 -4.4406E-03  9.3813E-03  -28.252 
     7    1   -0.0455    0.0000    0.0000   0.04545  7.9779E-03 -5.0472E-03  9.4404E-03  -32.319 
     8    1   -0.0909    0.0000    0.0000   0.04545  7.1379E-03 -5.0707E-03  8.7556E-03  -35.390 
     9    1   -0.1364    0.0000    0.0000   0.04545  5.7933E-03 -4.4446E-03  7.3019E-03  -37.495 
    10    1   -0.1818    0.0000    0.0000   0.04545  4.0152E-03 -3.2734E-03  5.1804E-03  -39.189 
    11    1   -0.2273    0.0000    0.0000   0.04545  1.7554E-03 -1.5052E-03  2.3124E-03  -40.613 






                               ---------- POWER BUDGET ---------
                               INPUT POWER   =  4.1319E-03 Watts
                               RADIATED POWER=  4.1319E-03 Watts
                               STRUCTURE LOSS=  0.0000E+00 Watts
                               NETWORK LOSS  =  0.0000E+00 Watts
                               EFFICIENCY    =  100.00 Percent


                         ----- RADIATION PATTERNS -----
 ---- ANGLES -----     ----- POWER GAINS -----       ---- POLARIZATION ----   ---- E(THETA) ----    ----- E(PHI) ------
  THETA      PHI       VERTC   HORIZ   TOTAL       AXIAL      TILT  SENSE   MAGNITUDE    PHASE    MAGNITUDE     PHASE
 DEGREES   DEGREES        DB       DB       DB       RATIO   DEGREES            VOLTS/M   DEGREES     VOLTS/M   DEGREES
    0.00      0.00      2.19  -999.99     2.19      0.0000      0.00 LINEAR  6.4074E-01     55.05  0.0000E+00      0.00
    5.00      0.00      2.14  -999.99     2.14      0.0000      0.00 LINEAR  6.3701E-01     55.05  0.0000E+00      0.00
   10.00      0.00      1.99  -999.99     1.99      0.0000      0.00 LINEAR  6.2594E-01     55.07  0.0000E+00      0.00
   15.00      0.00      1.74  -999.99     1.74      0.0000      0.00 LINEAR  6.0791E-01     55.11  0.0000E+00      0.00
   20.00      0.00      1.38  -999.99     1.38      0.0000      0.00 LINEAR  5.8351E-01     55.15  0.0000E+00      0.00
   25.00      0.00      0.92  -999.99     0.92      0.0000      0.00 LINEAR  5.5350E-01     55.21  0.0000E+00      0.00
   30.00      0.00      0.36  -999.99     0.36      0.0000      0.00 LINEAR  5.1874E-01     55.27  0.0000E+00      0.00
   35.00      0.00     -0.31  -999.99    -0.31      0.0000      0.00 LINEAR  4.8019E-01     55.35  0.0000E+00      0.00
   40.00      0.00     -1.10  -999.99    -1.10      0.0000      0.00 LINEAR  4.3878E-01     55.43  0.0000E+00      0.00
   45.00      0.00     -2.00  -999.99    -2.00      0.0000      0.00 LINEAR  3.9540E-01     55.52  0.0000E+00      0.00
   50.00      0.00     -3.04  -999.99    -3.04      0.0000      0.00 LINEAR  3.5082E-01     55.61  0.0000E+00      0.00
   55.00      0.00     -4.23  -999.99    -4.23      0.0000      0.00 LINEAR  3.0572E-01     55.70  0.0000E+00      0.00
   60.00      0.00     -5.62  -999.99    -5.62      0.0000      0.00 LINEAR  2.6061E-01     55.78  0.0000E+00      0.00
   65.00      0.00     -7.26  -999.99    -7.26      0.0000      0.00 LINEAR  2.1583E-01     55.86  0.0000E+00      0.00
   70.00      0.00     -9.25  -999.99    -9.25      0.0000      0.00 LINEAR  1.7161E-01     55.93  0.0000E+00      0.00
   75.00      0.00    -11.80  -999.99   -11.80      0.0000      0.00 LINEAR  1.2800E-01     55.99  0.0000E+00      0.00
   80.00      0.00    -15.35  -999.99   -15.35      0.0000      0.00 LINEAR  8.4968E-02     56.03  0.0000E+00      0.00
   85.00      0.00    -21.40  -999.99   -21.40      0.0000      0.00 LINEAR  4.2368E-02     56.06  0.0000E+00      0.00
   90.00      0.00   -999.99  -999.99  -999.99      0.0000      0.00         2.4754E-12   -123.93  0.0000E+00      0.00
   95.00      0.00    -21.40  -999.99   -21.40      0.0000     -0.00 LINEAR  4.2368E-02   -123.94  0.0000E+00      0.00
  100.00      0.00    -15.35  -999.99   -15.35      0.0000     -0.00 LINEAR  8.4968E-02   -123.97  0.0000E+00      0.00
  105.00      0.00    -11.80  -999.99   -11.80      0.0000     -0.00 LINEAR  1.2800E-01   -124.01  0.0000E+00      0.00
  110.00      0.00     -9.25  -999.99    -9.25      0.0000     -0.00 LINEAR  1.7161E-01   -124.07  0.0000E+00      0.00
  115.00      0.00     -7.26  -999.99    -7.26      0.0000     -0.00 LINEAR  2.1583E-01   -124.14  0.0000E+00      0.00
  120.00      0.00     -5.62  -999.99    -5.62      0.0000     -0.00 LINEAR  2.6061E-01   -124.22  0.0000E+00      0.00
  125.00      0.00     -4.23  -999.99    -4.23      0.0000     -0.00 LINEAR  3.0572E-01   -124.30  0.0000E+00      0.00
  130.00      0.00     -3.04  -999.99    -3.04      0.0000     -0.00 LINEAR  3.5082E-01   -124.39  0.0000E+00      0.00
  135.00      0.00     -2.00  -999.99    -2.00      0.0000     -0.00 LINEAR  3.9540E-01   -124.48  0.0000E+00      0.00
  140.00      0.00     -1.10  -999.99    -1.10      0.0000     -0.00 LINEAR  4.3878E-01   -124.57  0.0000E+00      0.00
  145.00      0.00     -0.31  -999.99    -0.31      0.0000     -0.00 LINEAR  4.8019E-01   -124.65  0.0000E+00      0.00
  150.00      0.00      0.36  -999.99     0.36      0.0000     -0.00 LINEAR  5.1874E-01   -124.73  0.0000E+00      0.00
  155.00      0.00      0.92  -999.99     0.92      0.0000     -0.00 LINEAR  5.5350E-01   -124.79  0.0000E+00      0.00
  160.00      0.00      1.38  -999.99     1.38      0.0000     -0.00 LINEAR  5.8351E-01   -124.85  0.0000E+00      0.00
  165.00      0.00      1.74  -999.99     1.74      0.0000     -0.00 LINEAR  6.0791E-01   -124.89  0.0000E+00      0.00
  170.00      0.00      1.99  -999.99     1.99      0.0000     -0.00 LINEAR  6.2594E-01   -124.93  0.0000E+00      0.00
  175.00      0.00      2.14  -999.99     2.14      0.0000     -0.00 LINEAR  6.3701E-01   -124.95  0.0000E+00      0.00
  180.00      0.00      2.19  -999.99     2.19      0.0000     -0.00 LINEAR  6.4074E-01   -124.95  0.0000E+00      0.00
    0.00      5.00      2.16   -19.00     2.19      0.0000     -5.00 LINEAR  6.3830E-01     55.05  5.5844E-02   -124.95
    5.00      5.00      2.11   -19.02     2.14      0.0000     -5.02 LINEAR  6.3459E-01     55.05  5.5732E-02   -124.95
   10.00      5.00      1.96   -19.07     1.99      0.0000     -5.08 LINEAR  6.2360E-01     55.07  5.5399E-02   -124.93
   15.00      5.00      1.70   -19.15     1.74      0.0000     -5.18 LINEAR  6.0568E-01     55.11  5.4860E-02   -124.89
   20.00      5.00      1.35   -19.27     1.39      0.0000     -5.32 LINEAR  5.8143E-01     55.15  5.4133E-02   -124.85
   25.00      5.00      0.89   -19.41     0.93      0.0000     -5.51 LINEAR  5.5159E-01     55.21  5.3247E-02   -124.79
   30.00      5.00      0.33   -19.58     0.37      0.0000     -5.77 LINEAR  5.1704E-01     55.27  5.2233E-02   -124.73
   35.00      5.00     -0.34   -19.77    -0.29      0.0000     -6.10 LINEAR  4.7869E-01     55.35  5.1126E-02   -124.65
   40.00      5.00     -1.12   -19.97    -1.06      0.0000     -6.52 LINEAR  4.3749E-01     55.43  4.9965E-02   -124.57
   45.00      5.00     -2.02   -20.17    -1.96      0.0000     -7.05 LINEAR  3.9431E-01     55.51  4.8787E-02   -124.49
   50.00      5.00     -3.06   -20.38    -2.98      0.0000     -7.75 LINEAR  3.4993E-01     55.60  4.7628E-02   -124.40
   55.00      5.00     -4.25   -20.59    -4.15      0.0000     -8.67 LINEAR  3.0500E-01     55.69  4.6522E-02   -124.31
   60.00      5.00     -5.64   -20.78    -5.51      0.0000     -9.92 LINEAR  2.6004E-01     55.78  4.5500E-02   -124.22
   65.00      5.00     -7.28   -20.96    -7.09      0.0000    -11.70 LINEAR  2.1540E-01     55.85  4.4590E-02   -124.15
   70.00      5.00     -9.27   -21.11    -8.99      0.0000    -14.35 LINEAR  1.7128E-01     55.92  4.3815E-02   -124.08
   75.00      5.00    -11.81   -21.23   -11.34      0.0000    -18.68 LINEAR  1.2778E-01     55.98  4.3192E-02   -124.02
   80.00      5.00    -15.37   -21.32   -14.39      0.0000    -26.74 LINEAR  8.4826E-02     56.02  4.2737E-02   -123.98
   85.00      5.00    -21.41   -21.38   -18.39      0.0000    -45.11 LINEAR  4.2299E-02     56.05  4.2461E-02   -123.95
   90.00      5.00   -999.99   -21.40   -21.40      0.0000     90.00 LINEAR  2.4714E-12   -123.94  4.2368E-02   -123.94
   95.00      5.00    -21.41   -21.38   -18.39      0.0000     45.11 LINEAR  4.2299E-02   -123.95  4.2461E-02   -123.95
  100.00      5.00    -15.37   -21.32   -14.39      0.0000     26.74 LINEAR  8.4826E-02   -123.98  4.2737E-02   -123.98
  105.00      5.00    -11.81   -21.23   -11.34      0.0000     18.68 LINEAR  1.2778E-01   -124.02  4.3192E-02   -124.02
  110.00      5.00     -9.27   -21.11    -8.99      0.0000     14.35 LINEAR  1.7128E-01   -124.08  4.3815E-02   -124.08
  115.00      5.00     -7.28   -20.96    -7.09      0.0000     11.70 LINEAR  2.1540E-01   -124.15  4.4590E-02   -124.15
  120.00      5.00     -5.64   -20.78    -5.51      0.0000      9.92 LINEAR  2.6004E-01   -124.22  4.5500E-02   -124.22
  125.00      5.00     -4.25   -20.59    -4.15      0.0000      8.67 LINEAR  3.0500E-01   -124.31  4.6522E-02   -124.31
  130.00      5.00     -3.06   -20.38    -2.98      0.0000      7.75 LINEAR  3.4993E-01   -124.40  4.7628E-02   -124.40
  135.00      5.00     -2.02   -20.17    -1.96      0.0000      7.05 LINEAR  3.9431E-01   -124.49  4.8787E-02   -124.49
  140.00      5.00     -1.12   -19.97    -1.06      0.0000      6.52 LINEAR  4.3749E-01   -124.57  4.9965E-02   -124.57
  145.00      5.00     -0.34   -19.77    -0.29      0.0000      6.10 LINEAR  4.7869E-01   -124.65  5.1126E-02   -124.65
  150.00      5.00      0.33   -19.58     0.37      0.0000      5.77 LINEAR  5.1704E-01   -124.73  5.2233E-02   -124.73
  155.00      5.00      0.89   -19.41     0.93      0.0000      5.51 LINEAR  5.5159E-01   -124.79  5.3247E-02   -124.79
  160.00      5.00      1.35   -19.27     1.39      0.0000      5.32 LINEAR  5.8143E-01   -124.85  5.4133E-02   -124.85
  165.00      5.00      1.70   -19.15     1.74      0.0000      5.18 LINEAR  6.0568E-01   -124.89  5.4860E-02   -124.89
  170.00      5.00      1.96   -19.07     1.99      0.0000      5.08 LINEAR  6.2360E-01   -124.93  5.5399E-02   -124.93
  175.00      5.00      2.11   -19.02     2.14      0.0000      5.02 LINEAR  6.3459E-01   -124.95  5.5732E-02   -124.95
  180.00      5.00      2.16   -19.00     2.19      0.0000      5.00 LINEAR  6.3830E-01   -124.95  5.5844E-02   -124.95
    0.00     10.00      2.06   -13.01     2.19      0.0000    -10.00 LINEAR  6.3100E-01     55.05  1.1126E-01   -124.95
    5.00     10.00      2.01   -13.03     2.14      0.0000    -10.04 LINEAR  6.2737E-01     55.05  1.1104E-01   -124.95
   10.00     10.00      1.86   -13.08     2.00      0.0000    -10.15 LINEAR  6.1658E-01     55.07  1.1040E-01   -124.93
   15.00     10.00      1.61   -13.16     1.75      0.0000    -10.35 LINEAR  5.9900E-01     55.10  1.0935E-01   -124.90
   20.00     10.00      1.26   -13.28     1.41      0.0000    -10.63 LINEAR  5.7519E-01     55.15  1.0793E-01   -124.85
   25.00     10.00      0.80   -13.42     0.96      0.0000    -11.01 LINEAR  5.4588E-01     55.20  1.0620E-01   -124.80
   30.00     10.00      0.24   -13.58     0.42      0.0000    -11.51 LINEAR  5.1191E-01     55.27  1.0423E-01   -124.73
   35.00     10.00     -0.42   -13.76    -0.22      0.0000    -12.15 LINEAR  4.7419E-01     55.34  1.0207E-01   -124.66
   40.00     10.00     -1.20   -13.96    -0.97      0.0000    -12.96 LINEAR  4.3361E-01     55.42  9.9807E-02   -124.58
   45.00     10.00     -2.10   -14.16    -1.83      0.0000    -14.00 LINEAR  3.9103E-01     55.50  9.7508E-02   -124.50
   50.00     10.00     -3.13   -14.36    -2.81      0.0000    -15.34 LINEAR  3.4721E-01     55.59  9.5245E-02   -124.41
   55.00     10.00     -4.32   -14.56    -3.92      0.0000    -17.09 LINEAR  3.0280E-01     55.67  9.3086E-02   -124.33
   60.00     10.00     -5.70   -14.75    -5.19      0.0000    -19.43 LINEAR  2.5830E-01     55.76  9.1091E-02   -124.24
   65.00     10.00     -7.33   -14.92    -6.63      0.0000    -22.65 LINEAR  2.1406E-01     55.83  8.9313E-02   -124.17
   70.00     10.00     -9.32   -15.07    -8.29      0.0000    -27.27 LINEAR  1.7030E-01     55.90  8.7797E-02   -124.10
   75.00     10.00    -11.86   -15.19   -10.20      0.0000    -34.27 LINEAR  1.2709E-01     55.96  8.6580E-02   -124.04
   80.00     10.00    -15.41   -15.28   -12.34      0.0000    -45.44 LINEAR  8.4389E-02     56.00  8.5691E-02   -124.00
   85.00     10.00    -21.46   -15.34   -14.39      0.0000    -63.70 LINEAR  4.2088E-02     56.02  8.5150E-02   -123.98
   90.00     10.00   -999.99   -15.35   -15.35      0.0000     90.00 LINEAR  2.4592E-12   -123.97  8.4968E-02   -123.97
   95.00     10.00    -21.46   -15.34   -14.39      0.0000     63.70 LINEAR  4.2088E-02   -123.98  8.5150E-02   -123.98
  100.00     10.00    -15.41   -15.28   -12.34      0.0000     45.44 LINEAR  8.4389E-02   -124.00  8.5691E-02   -124.00
  105.00     10.00    -11.86   -15.19   -10.20      0.0000     34.27 LINEAR  1.2709E-01   -124.04  8.6580E-02   -124.04
  110.00     10.00     -9.32   -15.07    -8.29      0.0000     27.27 LINEAR  1.7030E-01   -124.10  8.7797E-02   -124.10
  115.00     10.00     -7.33   -14.92    -6.63      0.0000     22.65 LINEAR  2.1406E-01   -124.17  8.9313E-02   -124.17
  120.00     10.00     -5.70   -14.75    -5.19      0.0000     19.43 LINEAR  2.5830E-01   -124.24  9.1091E-02   -124.24
  125.00     10.00     -4.32   -14.56    -3.92      0.0000     17.09 LINEAR  3.0280E-01   -124.33  9.3086E-02   -124.33
  130.00     10.00     -3.13   -14.36    -2.81      0.0000     15.34 LINEAR  3.4721E-01   -124.41  9.5245E-02   -124.41
  135.00     10.00     -2.10   -14.16    -1.83      0.0000     14.00 LINEAR  3.9103E-01   -124.50  9.7508E-02   -124.50
  140.00     10.00     -1.20   -13.96    -0.97      0.0000     12.96 LINEAR  4.3361E-01   -124.58  9.9807E-02   -124.58
  145.00     10.00     -0.42   -13.76    -0.22      0.0000     12.15 LINEAR  4.7419E-01   -124.66  1.0207E-01   -124.66
  150.00     10.00      0.24   -13.58     0.42      0.0000     11.51 LINEAR  5.1191E-01   -124.73  1.0423E-01   -124.73
  155.00     10.00      0.80   -13.42     0.96      0.0000     11.01 LINEAR  5.4588E-01   -124.80  1.0620E-01   -124.80
  160.00     10.00      1.26   -13.28     1.41      0.0000     10.63 LINEAR  5.7519E-01   -124.85  1.0793E-01   -124.85
  165.00     10.00      1.61   -13.16     1.75      0.0000     10.35 LINEAR  5.9900E-01   -124.90  1.0935E-01   -124.90
  170.00     10.00      1.86   -13.08     2.00      0.0000     10.15 LINEAR  6.1658E-01   -124.93  1.1040E-01   -124.93
  175.00     10.00      2.01   -13.03     2.14      0.0000     10.04 LINEAR  6.2737E-01   -124.95  1.1104E-01   -124.95
  180.00     10.00      2.06   -13.01     2.19      0.0000     10.00 LINEAR  6.3100E-01   -124.95  1.1126E-01   -124.95
    0.00     15.00      1.89    -9.55     2.19      0.0000    -15.00 LINEAR  6.1890E-01     55.05  1.6583E-01   -124.95
    5.00     15.00      1.84    -9.56     2.15      0.0000    -15.05 LINEAR  6.1538E-01     55.05  1.6552E-01   -124.95
